!ATF-10100
!S-PARAMETERS at Vds=2V  Id=25mA.   LAST UPDATED 07-22-92

# ghz s ma r 50 

1.0     .93     -46     7.63    148     .053    64      .33     -56
2.0     .83     -78     6.08    127     .085    52      .31     -63
3.0     .78     -94     4.97    114     .102    45      .30     -72
4.0     .72     -104    4.18    103     .116    41      .29     -80
5.0     .70     -120    3.65    92      .127    36      .25     -90
6.0     .68     -139    3.18    80      .132    31      .19     -113
7.0     .71     -157    2.69    69      .133    25      .18     -156
8.0     .72     -168    2.35    60      .133    22      .20     -178
9.0     .71     -177    2.12    53      .135    19      .22     174
10.0    .70     175     1.99    46      .143    17      .22     169
11.0    .70     167     1.88    38      .148    15      .23     164
12.0    .70     162     1.77    31      .154    13      .24     153
13.0    .70     159     1.68    25      .162    11      .26     143
14.0    .70     155     1.61    20      .168    10      .28     133
15.0    .73     149     1.56    14      .177    8       .30     123
16.0    .77     138     1.45    5       .184    6       .32     119
17.0    .76     134     1.23    0       .190    5       .35     114
18.0    .77     134     1.16    -1      .201    4       .38     106

!FREQ   Fopt    GAMMA OPT       RN/Zo
!GHZ     dB     MAG     ANG      -

0.1     0.3     .99     1       0.50
2.0     0.4     .55     27      0.29
4.0     0.55    .39     65      0.22
6.0     0.8     .41     105     0.16
8.0     1.0     .46     144     0.10
12.0    1.3     .50     174     0.09
